 ****** HSPICE -- A-2008.03 32-BIT (Feb 26 2008) winnt ******                   
  Copyright (C) 2008 Synopsys, Inc. All Rights Reserved.                        
  Unpublished-rights reserved under US copyright laws.
  This program is protected by law and is subject to the 
  terms and conditions of the license agreement found in:
    C:\synopsys\Hspice_A-2008.03\license.warn
  Use of this program is your acceptance to be bound by this 
  license agreement. HSPICE is the trademark of Synopsys, Inc.
  Input File: c:\users\mehrdad\desktop\ca\ca4\part3\2_combitional\combitional.sp
 Init: read install configuration file: C:\synopsys\Hspice_A-2008.03\meta.cfg
 Init: hspice initialization file: C:\synopsys\Hspice_A-2008.03\hspice.ini
 **warning** (c:\users\mehrdad\desktop\ca\ca4\part3\2_combitional\combitional.sp:8) symbol: + is ignored 





 ***** params *****
 .param  +vdd = 1v
 +gnd = 0v
 +lmin = 32n
 +wp = 2
 +wn = 1

 ***** temperature *****
 .temp	25

 ***** sources *****
 vsupply	vm		0		dc		1

 vina    a		0		dc		0
 *vina	 a 		0   	pulse	vdd  	gnd 	0   	1p		1p 		1000p 		2500p

 vinb    b		0		dc		1
 *vinb	 b 		0   	pulse	vdd  	gnd 	0   	1p		1p 		1000p 		2500p

 ***** component *****
 x1		vm		a		ab		invertercmos  
 x2		vm		b		bb		invertercmos  

 *pull up
 mp1		y1	  	a   	vm	    vm		pmos	l='lmin'	w='2*lmin*wp'
 mp2     f     	bb   	y1     	y1   	pmos	l='lmin'    w='2*lmin*wp'
 mp3		y2	  	b   	vm	    vm		pmos	l='lmin'	w='2*lmin*wp'
 mp4     f     	ab   	y2     	y2   	pmos	l='lmin'    w='2*lmin*wp'

 *pull down
 mn1	    f	   	a   	y3  	y3     	nmos	l='lmin'	w='2*lmin*wn'
 mn2	    y3	   	b   	gnd  	gnd     nmos	l='lmin'	w='2*lmin*wn'
 mn3	    f	   	ab   	y4  	y4     	nmos	l='lmin'	w='2*lmin*wn'
 mn4	    y4	   	bb   	gnd  	gnd     nmos	l='lmin'	w='2*lmin*wn'

 * capacitor
 cf		f		0       10ff

 *inverter
 x3		vm		f		w1		invertercmos
 x4		vm		w1		w2		invertercmos
 x5		vm		w2		w3		invertercmos
 x6		vm		w3		out		invertercmos

 ***** inverter
 .subckt invertercmos	vdd     a 		out
 mp1		out	  	a   	vdd	    vdd		pmos	l='lmin'	w='lmin*wp'
 mn1	    out	   	a   	gnd  	gnd     nmos	l='lmin'	w='lmin*wn'
 cl		out		0       10ff
 .ends invertercmos

 ***** type of analysis *****
 ***** transient analysis:
 .tran	0.1ns     100ns   1ns

 .op
 .end

 ***********************************************************************
 ** runlvl is invoked, you can disable it by:
      a) Add option runlvl=0 to your current simulation job.
      b) Copy $installdir/hspice.ini to your HOME directory and
         customize it by adding option runlvl=0, which disables
         it for all of your simulation jobs.
      c) Re-invoke $installdir/bin/config program and unselect the
         option runlvl setting in box 'hspice.ini' which disables
         it for whole group simulation jobs.

 ** runlvl is invoked, some options are ignored or automatically set:
      Options below are automatically set(user setting will overwrite them):
      if runlvl=6,            .option bypass=0
      if runlvl=[1|2|3|4|5],  .option bypass=2

      Options below are ignored, they are replaced by automated algorithms:
        lvltim    dvdt      ft    fast   trtol  absvar  relvar
          relq  chgtol    dvtr    imin    itl3    rmax

 ** runlvl is invoked, actual option value used by HSPICE are:
       runlvl= 3       bypass= 2      mbypass=   2.00   bytol= 100.00u
 ***********************************************************************

1****** HSPICE -- A-2008.03 32-BIT (Feb 26 2008) winnt ******                   
 ******  
 * combitional                                                                  
  ******  circuit name directory                                                
 ******  
 circuit number to circuit name directory
   number circuitname                     definition         multiplier
        0 main circuit
        1 x1.                             invertercmos       1.00 
        2 x2.                             invertercmos       1.00 
        3 x3.                             invertercmos       1.00 
        4 x4.                             invertercmos       1.00 
        5 x5.                             invertercmos       1.00 
        6 x6.                             invertercmos       1.00 

 **warning** recommend to set start explicitly:
             .TRAN tstep tstop START=val


 ** warning** associated with encrypted blocks were suppressed

 
      
  Opening plot unit= 79
 file=c:\users\mehrdad\desktop\ca\ca4\part3\2_combitional\combitional.pa0      


 **diagnostic** dc convergence failure, 
 resetting dcon option to 1 and retrying

 **diagnostic** dc convergence successful
 you can increase the efficiency of the
 operating point calculation by setting dcon= 1
 in the .option statement
1****** HSPICE -- A-2008.03 32-BIT (Feb 26 2008) winnt ******                   
 ******  
 * combitional                                                                  
  ******  operating point information      tnom=  25.000 temp=  25.000          
 ******  
 ***** operating point status is all       simulation time is     0.     
    node    =voltage      node    =voltage      node    =voltage

 +0:a       =   0.      0:ab      = 999.8863m 0:b       =   1.0000 
 +0:bb      = 142.1260u 0:f       = 999.6253m 0:out     = 999.8860m
 +0:vm      =   1.0000  0:w1      = 143.2273u 0:w2      = 999.8798m
 +0:w3      = 142.4402u 0:y1      = 999.8126m 0:y2      = 999.8129m
 +0:y3      =  68.1214u 0:y4      = 838.4105m


 ****  voltage sources

 subckt                                   
 element  0:vsupply  0:vina     0:vinb    
  volts      1.0000     0.         1.0000 
  current -109.1552n  467.1447p   -1.4814n
  power    109.1552n    0.         1.4814n

     total voltage source power dissipation=  110.6366n       watts




 **** mosfets


 subckt                                                                    
 element  0:mp1      0:mp2      0:mp3      0:mp4      0:mn1      0:mn2     
 model    0:pmos     0:pmos     0:pmos     0:pmos     0:nmos     0:nmos    
 region       Linear     Linear     Cutoff     Cutoff     Cutoff     Linear
  id       -28.1736n  -28.1577n -238.6782f -238.7724f   19.1355n   19.6615n
  ibs     -7.897e-26 -7.852e-26 -2.221e-28 -1.111e-28  9.523e-25  2.083e-26
  ibd      260.0214a  259.9744a  259.7189a  260.2770a   -1.0096p  -94.6011a
  vgs       -1.0000  -999.6705m    0.        73.4804u  -68.1214u    1.0000 
  vds     -187.3606u -187.3267u -187.1424u -187.5449u  999.5572m   68.1214u
  vbs        0.         0.         0.         0.         0.         0.     
  vth     -430.7791m -430.7791m -430.7792m -430.7791m  274.8257m  494.8835m
  vdsat   -426.7928m -426.6019m  -46.2022m  -46.2022m   38.1123m  279.7209m
  vod     -569.2209m -568.8914m  430.7792m  430.8525m -274.8939m  505.1165m
  beta     329.3949u  329.4367u  341.4335u  341.4335u    3.6850m    2.0914m
  gam eff  400.0000m  400.0000m  400.0000m  400.0000m  400.0000m  400.0000m
  gm        32.5775n   32.5875n    5.6902p    5.6925p  424.3240n    9.2140n
  gds      150.3500u  150.2927u    1.2741n    1.2718n  102.1657n  288.6008u
  gmb       10.3507n   10.3508n    1.4682p    1.4689p  101.8289n    3.4274n
  cdtot    169.3639a  169.3554a  108.1238a  108.1202a   38.0554a   81.3754a
  cgtot    153.7184a  153.7150a   98.1058a   98.0992a   37.7652a   69.1760a
  cstot    160.4753a  160.4772a  146.4598a  146.4563a   71.4263a   76.4401a
  cbtot    174.8678a  174.8679a  175.6485a  175.6490a   81.3776a   87.3872a
  cgs       89.5293a   89.5275a   44.2650a   44.2615a   20.3310a   38.6971a
  cgd       63.2384a   63.2363a   44.2556a   44.2521a   12.6051a   29.9941a



 subckt                         x1         x1         x2         x2        
 element  0:mn3      0:mn4      1:mp1      1:mn1      2:mp1      2:mn1     
 model    0:nmos     0:nmos     0:pmos     0:nmos     0:pmos     0:nmos    
 region       Cutoff     Cutoff     Linear     Cutoff     Cutoff     Linear
  id         8.2676n    8.1398n   -7.9433n    7.8095n  -18.8163n   19.1781n
  ibs      1.607e-25  7.957e-25 -3.598e-26  9.492e-25 -9.506e-25  8.638e-27
  ibd     -171.1960f -848.4105f  157.8047a   -1.0099p    1.0099p -197.2927a
  vgs      161.4758m  142.1260u   -1.0000     0.         0.         1.0000 
  vds      161.2148m  838.4105m -113.6619u  999.8863m -999.8579m  142.1260u
  vbs        0.         0.         0.         0.         0.         0.     
  vth      459.4038m  310.3054m -430.7990m  274.7533m -161.4182m  494.8672m
  vdsat     39.5685m   38.3212m -425.8652m   37.8666m  -46.9896m  267.2060m
  vod     -297.9280m -310.1633m -569.2010m -274.7533m  161.4182m  505.1328m
  beta       2.9003m    3.5258m  150.7380u    1.5014m  236.1024u  852.0460u
  gam eff  400.0000m  400.0000m  400.0000m  400.0000m  400.0000m  400.0000m
  gm       185.2417n  183.1247n    9.3233n  173.1929n  406.5127n   10.2020n
  gds       45.3153n   43.4090n   69.8789u   41.6976n  139.7051n  134.9115u
  gmb       45.5537n   45.3259n    2.9631n   41.5539n   83.7990n    3.8135n
  cdtot     50.7445a   38.9764a   80.2211a   17.8597a   37.9791a   36.1049a
  cgtot     47.8535a   37.9757a   70.5209a   15.5774a   37.3967a   28.3739a
  cstot     74.2239a   71.4285a   77.7625a   33.8315a   71.4011a   35.8766a
  cbtot     85.9054a   82.0886a   87.2369a   40.4319a   81.1105a   43.4811a
  cgs       23.1278a   20.3320a   40.9682a    8.2836a   20.3193a   15.7670a
  cgd       20.3314a   12.8147a   28.9428a    5.1353a   12.5250a   12.2181a



 subckt   x3         x3         x4         x4         x5         x5        
 element  3:mp1      3:mn1      4:mp1      4:mn1      5:mp1      5:mn1     
 model    0:pmos     0:nmos     0:pmos     0:nmos     0:pmos     0:nmos    
 region       Cutoff     Linear     Linear     Cutoff     Cutoff     Linear
  id       -18.9691n   19.3229n   -8.3983n    7.8341n  -18.8652n   19.2193n
  ibs     -9.506e-25  8.580e-27 -3.598e-26  9.492e-25 -9.511e-25  8.619e-27
  ibd        1.0099p -198.8203a  166.8684a   -1.0099p    1.0099p -197.7286a
  vgs     -374.6873u  999.6253m -999.8568m  143.2273u -120.1945u  999.8798m
  vds     -999.8568m  143.2273u -120.1945u  999.8798m -999.8576m  142.4402u
  vbs        0.         0.         0.         0.         0.         0.     
  vth     -161.4184m  494.8670m -430.7972m  274.7547m -161.4182m  494.8672m
  vdsat    -47.0037m  267.0534m -425.7835m   37.8670m  -46.9941m  267.1571m
  vod      161.0438m  504.7583m -569.0596m -274.6115m  161.2980m  505.0126m
  beta     236.1053u  852.2228u  150.7465u    1.5014m  236.1033u  852.1027u
  gam eff  400.0000m  400.0000m  400.0000m  400.0000m  400.0000m  400.0000m
  gm       409.6909n   10.2934n    9.8612n  173.7260n  407.5297n   10.2285n
  gds      140.8043n  134.8842u   69.8665u   41.8262n  140.0568n  134.9027u
  gmb       84.4298n    3.8458n    3.1336n   41.6769n   84.0009n    3.8228n
  cdtot     37.9794a   36.1029a   80.2186a   17.8598a   37.9792a   36.1042a
  cgtot     37.4047a   28.3736a   70.5202a   15.5785a   37.3993a   28.3738a
  cstot     71.4097a   35.8773a   77.7634a   33.8328a   71.4038a   35.8768a
  cbtot     81.1095a   43.4811a   87.2369a   40.4317a   81.1102a   43.4811a
  cgs       20.3281a   15.7672a   40.9681a    8.2849a   20.3221a   15.7671a
  cgd       12.5253a   12.2176a   28.9421a    5.1354a   12.5251a   12.2180a



 subckt   x6         x6        
 element  6:mp1      6:mn1     
 model    0:pmos     0:nmos    
 region       Linear     Cutoff
  id        -7.9674n    7.8342n
  ibs     -3.620e-26  9.492e-25
  ibd      158.3101a   -1.0099p
  vgs     -999.8576m  142.4402u
  vds     -114.0262u  999.8860m
  vbs        0.         0.     
  vth     -430.7989m  274.7534m
  vdsat   -425.7831m   37.8670m
  vod     -569.0587m -274.6109m
  beta     150.7463u    1.5014m
  gam eff  400.0000m  400.0000m
  gm         9.3551n  173.7287n
  gds       69.8672u   41.8268n
  gmb        2.9728n   41.6775n
  cdtot     80.2194a   17.8598a
  cgtot     70.5202a   15.5785a
  cstot     77.7629a   33.8328a
  cbtot     87.2370a   40.4317a
  cgs       40.9678a    8.2849a
  cgd       28.9423a    5.1354a




          ***** job concluded
1****** HSPICE -- A-2008.03 32-BIT (Feb 26 2008) winnt ******                   
 ******  
 * combitional                                                                  
  ******  job statistics summary           tnom=  25.000 temp=  25.000          
 ******  

           total memory used        218 kbytes

  # nodes =      95 # elements=      30
  # diodes=       0 # bjts    =       0 # jfets   =       0 # mosfets =      20
  # va device =       0

    analysis           time    # points   tot. iter  conv.iter

    op point           0.05           1         239
    transient          0.09         991          52          26 rev=         0
    readin             0.02
    errchk             0.01
    setup              0.01
    output             0.00
           total cpu time          0.21 seconds
           total elapsed time         1 seconds
               job started at  10:06:36 12/29/2018
               job ended   at  10:06:37 12/29/2018


 Init: hspice initialization file: C:\synopsys\Hspice_A-2008.03\hspice.ini
