 ****** HSPICE -- A-2008.03 32-BIT (Feb 26 2008) winnt ******                   
  Copyright (C) 2008 Synopsys, Inc. All Rights Reserved.                        
  Unpublished-rights reserved under US copyright laws.
  This program is protected by law and is subject to the 
  terms and conditions of the license agreement found in:
    C:\synopsys\Hspice_A-2008.03\license.warn
  Use of this program is your acceptance to be bound by this 
  license agreement. HSPICE is the trademark of Synopsys, Inc.
  Input File: c:\users\mehrdad\desktop\ca\ca4\part2\transmission gate .sp       
 Init: read install configuration file: C:\synopsys\Hspice_A-2008.03\meta.cfg
 Init: hspice initialization file: C:\synopsys\Hspice_A-2008.03\hspice.ini
 **warning** (c:\users\mehrdad\desktop\ca\ca4\part2\transmission gate .sp:8) symbol: + is ignored 





 ***** params *****
 .param  +vdd = 1v
 +gnd = 0v
 +lmin = 32n
 +wp = 4
 +wn = 2

 ***** temperature *****
 .temp	25

 ***** sources *****

 vsupply	vm		0	dc	1

 *vind    d		0	dc		1
 vind	 d 		0   pulse	vdd  	gnd 	0   	1p		1p 		500p 		2500p

 vinclk  clk 	0   pulse	gnd		vdd 	0   	1p 		1p 		3000p 		4000p
 *v      n+  	n-  pulse   v1  	v2  	td  	tr  	tf  	pw  		per
 ***** component *****

 xclk  	vm     clk    clkbar	invertercmos

 mp1		w1		clk		d		d		pmos	l='lmin'	w='lmin*wp'
 mn1	    w1	   	clkbar  d  		d     	nmos	l='lmin'	w='lmin*wn'
 c1		w1		0       5ff
 x1		vm		w1		w2		invertercmos

 mp2		w3		clkbar	w2		w2		pmos	l='lmin'	w='lmin*wp'
 mn2	    w3	   	clk  	w2  	w2     	nmos	l='lmin'	w='lmin*wn'	     
 c2		w3		0       5ff
 x2		vm		w3		q		invertercmos

 ***** inverter
 .subckt invertercmos	vdd     a 		out
 mp1		out	  	a   	vdd	    vdd		pmos	l='lmin'	w='lmin*wp'
 mn1	    out	   	a   	gnd  	gnd     nmos	l='lmin'	w='lmin*wn'
 cl		out		0       5ff
 .ends invertercmos

 ***** type of analysis *****
 ***** transient analysis:
 .tran	0.1ns     100ns   1ns

 ***** transition time :
 .measure tran t_rise
 + trig v(q) val = '0.1*vdd'  rise = 1
 + targ v(q) val = '0.9*vdd'  rise = 1

 .measure tran t_fall
 + trig v(q) val = '0.9*vdd'  fall = 1
 + targ v(q) val = '0.1*vdd'  fall = 1

 .op
 .end

 ***********************************************************************
 ** runlvl is invoked, you can disable it by:
      a) Add option runlvl=0 to your current simulation job.
      b) Copy $installdir/hspice.ini to your HOME directory and
         customize it by adding option runlvl=0, which disables
         it for all of your simulation jobs.
      c) Re-invoke $installdir/bin/config program and unselect the
         option runlvl setting in box 'hspice.ini' which disables
         it for whole group simulation jobs.

 ** runlvl is invoked, some options are ignored or automatically set:
      Options below are automatically set(user setting will overwrite them):
      if runlvl=6,            .option bypass=0
      if runlvl=[1|2|3|4|5],  .option bypass=2

      Options below are ignored, they are replaced by automated algorithms:
        lvltim    dvdt      ft    fast   trtol  absvar  relvar
          relq  chgtol    dvtr    imin    itl3    rmax

 ** runlvl is invoked, actual option value used by HSPICE are:
       runlvl= 3       bypass= 2      mbypass=   2.00   bytol= 100.00u
 ***********************************************************************

1****** HSPICE -- A-2008.03 32-BIT (Feb 26 2008) winnt ******                   
 ******  
 * transmission gate                                                            
  ******  circuit name directory                                                
 ******  
 circuit number to circuit name directory
   number circuitname                     definition         multiplier
        0 main circuit
        1 xclk.                           invertercmos       1.00 
        2 x1.                             invertercmos       1.00 
        3 x2.                             invertercmos       1.00 

 **warning** recommend to set start explicitly:
             .TRAN tstep tstop START=val



 **warning** dc voltage reset to initial transient source value
             in source        0:vind                new dc=  0.1000D+01


 **warning** dc voltage reset to initial transient source value
             in source        0:vinclk              new dc=  0.0000D+00

 ** warning** associated with encrypted blocks were suppressed

 
      
  Opening plot unit= 79
 file=c:\users\mehrdad\desktop\ca\ca4\part2\transmission gate .pa0             

1****** HSPICE -- A-2008.03 32-BIT (Feb 26 2008) winnt ******                   
 ******  
 * transmission gate                                                            
  ******  operating point information      tnom=  25.000 temp=  25.000          
 ******  
 ***** operating point status is all       simulation time is     0.     
    node    =voltage      node    =voltage      node    =voltage

 +0:clk     =   0.      0:clkbar  = 999.8700m 0:d       =   1.0000 
 +0:q       = 997.8794m 0:vm      =   1.0000  0:w1      = 999.9929m
 +0:w2      = 145.0803u 0:w3      = 124.6496m


 ****  voltage sources

 subckt                                   
 element  0:vsupply  0:vind     0:vinclk  
  volts      1.0000     1.0000     0.     
  current -328.5738n   -1.0737n  347.7364p
  power    328.5738n    1.0737n    0.     

     total voltage source power dissipation=  329.6475n       watts




 **** mosfets


 subckt                                               xclk       xclk      
 element  0:mp1      0:mn1      0:mp2      0:mn2      1:mp1      1:mn1     
 model    0:pmos     0:nmos     0:pmos     0:nmos     0:pmos     0:nmos    
 region       Linear     Cutoff     Cutoff     Cutoff     Linear     Cutoff
  id        -1.0657n  -24.4230f  2.299e-19  167.3886p  -19.5465n   19.1965n
  ibs     -7.852e-26    0.       2.565e-23  1.260e-25 -7.897e-26  9.527e-25
  ibd        9.8439a    9.8447a   -1.3869p -134.4259f  180.4487a   -1.0099p
  vgs       -1.0000  -129.9832u  999.7249m -145.0803u   -1.0000     0.     
  vds       -7.0862u   -7.0862u  124.5045m  124.5045m -129.9832u  999.8700m
  vbs        0.         0.         0.         0.         0.         0.     
  vth     -430.8277m  494.8956m -376.0249m  467.4863m -430.7946m  274.7569m
  vdsat   -426.7699m   39.7624m  -45.5343m   39.5432m -426.7855m   38.1122m
  vod     -569.1723m -495.0256m    1.3757  -467.6314m -569.2054m -274.7569m
  beta     329.3840u    2.7655m  367.8281u    2.8693m  329.3914u    3.6853m
  gam eff  400.0000m  400.0000m  400.0000m  400.0000m  400.0000m  400.0000m
  gm         1.2321n  564.8355f    5.3761a    3.8656n   22.6010n  425.6476n
  gds      150.3899u    3.4464n    1.7126a  972.2297p  150.3627u  102.4888n
  gmb      391.5207p  164.1051f    2.1465a    1.0918n    7.1812n  102.1345n
  cdtot    169.4133a   52.2596a   94.2019a   48.3452a  169.3796a   38.0538a
  cgtot    153.7195a   45.4774a   97.2816a   42.7647a  153.7188a   37.7662a
  cstot    160.4451a   71.4210a  129.5894a   71.4207a  160.4657a   71.4278a
  cbtot    174.8737a   87.8639a  201.2339a   86.6620a  174.8697a   81.3761a
  cgs       89.5140a   20.3234a   27.3942a   20.3232a   89.5245a   20.3325a
  cgd       63.2552a   20.3238a   37.3189a   17.6111a   63.2438a   12.6048a



 subckt   x1         x1         x2         x2        
 element  2:mp1      2:mn1      3:mp1      3:mn1     
 model    0:pmos     0:nmos     0:pmos     0:nmos    
 region       Cutoff     Linear     Linear     Cutoff
  id       -41.1462n   41.8697n -267.8677n  267.7062n
  ibs     -9.553e-25  2.094e-26 -8.774e-27  1.015e-24
  ibd        1.0099p -201.3905a    2.9129f   -1.0079p
  vgs       -7.0862u  999.9929m -875.3504m  124.6496m
  vds     -999.8549m  145.0803u   -2.1206m  997.8794m
  vbs        0.         0.         0.         0.     
  vth     -161.4189m  494.8666m -430.2582m  275.1952m
  vdsat    -46.9942m  279.7247m -353.3466m   39.9473m
  vod      161.4119m  505.1263m -445.0922m -150.5456m
  beta     515.9268u    2.0914m  345.3166u    3.6768m
  gam eff  400.0000m  400.0000m  400.0000m  400.0000m
  gm       888.8709n   19.6286n  445.7874n    5.3423u
  gds      305.4769n  288.5470u  126.0860u    1.2951u
  gmb      183.2335n    7.3000n  125.7639n    1.1610u
  cdtot     78.2787a   81.3626a  164.8513a   38.2103a
  cgtot     81.3368a   69.1758a  152.1816a   39.9911a
  cstot    146.5624a   76.4480a  161.7641a   73.8325a
  cbtot    162.6839a   87.3861a  174.8228a   81.0396a
  cgs       44.4018a   38.7011a   88.9164a   22.7923a
  cgd       27.3694a   29.9898a   62.0401a   12.7402a



 ******  
 * transmission gate                                                            
  ******  transient analysis               tnom=  25.000 temp=  25.000          
 ******  

**warning** measure results may be incorrect
       since initial start time is non-zero.
   t_rise= -1.9562E-08  targ=  1.1886E-09   trig=  2.0751E-08
   t_fall=  1.7615E-08  targ=  2.0383E-08   trig=  2.7679E-09

          ***** job concluded
1****** HSPICE -- A-2008.03 32-BIT (Feb 26 2008) winnt ******                   
 ******  
 * transmission gate                                                            
  ******  job statistics summary           tnom=  25.000 temp=  25.000          
 ******  

           total memory used        192 kbytes

  # nodes =      49 # elements=      18
  # diodes=       0 # bjts    =       0 # jfets   =       0 # mosfets =      10
  # va device =       0

    analysis           time    # points   tot. iter  conv.iter

    op point           0.02           1          18
    transient          0.57         991        8501        2506 rev=       124
    readin             0.01
    errchk             0.01
    setup              0.02
    output             0.00
           total cpu time          0.71 seconds
           total elapsed time         1 seconds
               job started at  10:14:39 12/27/2018
               job ended   at  10:14:39 12/27/2018


 Init: hspice initialization file: C:\synopsys\Hspice_A-2008.03\hspice.ini
