 ****** HSPICE -- A-2008.03 32-BIT (Feb 26 2008) winnt ******                   
  Copyright (C) 2008 Synopsys, Inc. All Rights Reserved.                        
  Unpublished-rights reserved under US copyright laws.
  This program is protected by law and is subject to the 
  terms and conditions of the license agreement found in:
    C:\synopsys\Hspice_A-2008.03\license.warn
  Use of this program is your acceptance to be bound by this 
  license agreement. HSPICE is the trademark of Synopsys, Inc.
  Input File: c:\users\mehrdad\desktop\ca\ca4\part3\3_together\together.sp      
 Init: read install configuration file: C:\synopsys\Hspice_A-2008.03\meta.cfg
 Init: hspice initialization file: C:\synopsys\Hspice_A-2008.03\hspice.ini
 **warning** (c:\users\mehrdad\desktop\ca\ca4\part3\3_together\together.sp:8) symbol: + is ignored 





 ***** params *****
 .param  +vdd = 1v
 +gnd = 0v
 +lmin = 32n
 +wp = 2
 +wn = 1

 ***** temperature *****
 .temp	25

 ***** sources *****
 vsupply	vm		0		dc		1

 *vind    d		0		dc		1
 vind	 d 		0   	pulse	vdd  	gnd 	0   	1p		1p 		1000p 		2500p

 vinclk  clk 	0   	pulse	gnd		vdd 	0   	1p 		1p 		3000p 		4000p
 *v      n+  	n-  	pulse   v1  	v2  	td  	tr  	tf  	pw  		per

 *vina    a		0		dc		0
 *vina	 a 		0   	pulse	vdd  	gnd 	0   	1p		1p 		1000p 		2500p

 vinb    b		0		dc		1
 *vinb	 b 		0   	pulse	vdd  	gnd 	0   	1p		1p 		1000p 		2500p

 ***** component *****
 x1		vm		d		clk		w1		flipflop
 x2		vm		w1		b		w2		combitional
 x3		vm		w2		clk 	out		flipflop

 ***** flip flop
 .subckt flipflop		vm     	d 		clk		q
 x1		vm		w4		w2		w1		nand2input
 x2		vm		w1		clk		w2		nand2input
 x3		vm		w2		clk		w4		w3		nand3input
 x4		vm		w3		d		w4		nand2input
 x5		vm		w2		qb		q		nand2input
 x6		vm		w3		q		qb		nand2input
 .ends flipflop

 ***** combitional
 .subckt combitional		vm     a 		b		out
 x1		vm		a		ab		invertercmos  
 x2		vm		b		bb		invertercmos  

 *pull up
 mp1		y1	  	a   	vm	    vm		pmos	l='lmin'	w='2*lmin*wp'
 mp2     f     	bb   	y1     	y1   	pmos	l='lmin'    w='2*lmin*wp'
 mp3		y2	  	b   	vm	    vm		pmos	l='lmin'	w='2*lmin*wp'
 mp4     f     	ab   	y2     	y2   	pmos	l='lmin'    w='2*lmin*wp'

 *pull down
 mn1	    f	   	a   	y3  	y3     	nmos	l='lmin'	w='2*lmin*wn'
 mn2	    y3	   	b   	gnd  	gnd     nmos	l='lmin'	w='2*lmin*wn'
 mn3	    f	   	ab   	y4  	y4     	nmos	l='lmin'	w='2*lmin*wn'
 mn4	    y4	   	bb   	gnd  	gnd     nmos	l='lmin'	w='2*lmin*wn'

 * capacitor
 cf		f		0       10ff

 *inverter
 x3		vm		f		w1		invertercmos
 x4		vm		w1		w2		invertercmos
 x5		vm		w2		w3		invertercmos
 x6		vm		w3		out		invertercmos
 .ends combitional

 ***** inverter
 .subckt invertercmos	vdd     a 		out
 mp1		out	  	a   	vdd	    vdd		pmos	l='lmin'	w='lmin*wp'
 mn1	    out	   	a   	gnd  	gnd     nmos	l='lmin'	w='lmin*wn'
 cl		out		0       10ff
 .ends invertercmos

 ***** nand 2 input
 .subckt nand2input	vdd     a       b       out
 mp1		out	  		a   	vdd	    vdd		pmos	l='lmin'	w='lmin*wp'
 mp2     out     	b   	vdd     vdd   	pmos	l='lmin'    w='lmin*wp'
 mn1	    2	   		b   	gnd  	gnd     nmos	l='lmin'	w='2*lmin*wn'
 mn2	    out	   		a   	2  		2     	nmos	l='lmin'	w='2*lmin*wn'
 cl		out			0       5ff
 .ends nand2input

 ***** nand 3 input
 .subckt nand3input	vdd     a       b       c		out
 mp1		out	  		a   	vdd	    vdd		pmos	l='lmin'	w='lmin*wp'
 mp2     out     	b   	vdd     vdd   	pmos	l='lmin'    w='lmin*wp'
 mp3     out     	c   	vdd     vdd   	pmos	l='lmin'    w='lmin*wp'
 mn1	    2	   		c   	gnd  	gnd     nmos	l='lmin'	w='3*lmin*wn'
 mn2	    3	   		b   	2  		2     	nmos	l='lmin'	w='3*lmin*wn'
 mn3	    out	   		a   	3  		3     	nmos	l='lmin'	w='3*lmin*wn'
 cl		out			0       5ff
 .ends nand3input

 ***** type of analysis *****
 ***** transient analysis:
 .tran	0.1ns     100ns   1ns
 .op
 .end

 ***********************************************************************
 ** runlvl is invoked, you can disable it by:
      a) Add option runlvl=0 to your current simulation job.
      b) Copy $installdir/hspice.ini to your HOME directory and
         customize it by adding option runlvl=0, which disables
         it for all of your simulation jobs.
      c) Re-invoke $installdir/bin/config program and unselect the
         option runlvl setting in box 'hspice.ini' which disables
         it for whole group simulation jobs.

 ** runlvl is invoked, some options are ignored or automatically set:
      Options below are automatically set(user setting will overwrite them):
      if runlvl=6,            .option bypass=0
      if runlvl=[1|2|3|4|5],  .option bypass=2

      Options below are ignored, they are replaced by automated algorithms:
        lvltim    dvdt      ft    fast   trtol  absvar  relvar
          relq  chgtol    dvtr    imin    itl3    rmax

 ** runlvl is invoked, actual option value used by HSPICE are:
       runlvl= 3       bypass= 2      mbypass=   2.00   bytol= 100.00u
 ***********************************************************************

1****** HSPICE -- A-2008.03 32-BIT (Feb 26 2008) winnt ******                   
 ******  
 * together                                                                     
  ******  circuit name directory                                                
 ******  
 circuit number to circuit name directory
   number circuitname                     definition         multiplier
        0 main circuit
        1 x1.                             flipflop           1.00 
        2 x2.                             combitional        1.00 
        3 x3.                             flipflop           1.00 
        4 x1.x1.                          nand2input         1.00 
        5 x1.x2.                          nand2input         1.00 
        6 x1.x3.                          nand3input         1.00 
        7 x1.x4.                          nand2input         1.00 
        8 x1.x5.                          nand2input         1.00 
        9 x1.x6.                          nand2input         1.00 
       10 x2.x1.                          invertercmos       1.00 
       11 x2.x2.                          invertercmos       1.00 
       12 x2.x3.                          invertercmos       1.00 
       13 x2.x4.                          invertercmos       1.00 
       14 x2.x5.                          invertercmos       1.00 
       15 x2.x6.                          invertercmos       1.00 
       16 x3.x1.                          nand2input         1.00 
       17 x3.x2.                          nand2input         1.00 
       18 x3.x3.                          nand3input         1.00 
       19 x3.x4.                          nand2input         1.00 
       20 x3.x5.                          nand2input         1.00 
       21 x3.x6.                          nand2input         1.00 

 **warning** recommend to set start explicitly:
             .TRAN tstep tstop START=val



 **warning** dc voltage reset to initial transient source value
             in source        0:vind                new dc=  0.1000D+01


 **warning** dc voltage reset to initial transient source value
             in source        0:vinclk              new dc=  0.0000D+00

 ** warning** associated with encrypted blocks were suppressed

 
      
  Opening plot unit= 79
 file=c:\users\mehrdad\desktop\ca\ca4\part3\3_together\together.pa0            


 **diagnostic** dc convergence failure, 
 resetting dcon option to 1 and retrying

 **diagnostic** dc convergence successful
 you can increase the efficiency of the
 operating point calculation by setting dcon= 1
 in the .option statement
1****** HSPICE -- A-2008.03 32-BIT (Feb 26 2008) winnt ******                   
 ******  
 * together                                                                     
  ******  operating point information      tnom=  25.000 temp=  25.000          
 ******  
 ***** operating point status is all       simulation time is     0.     
     node    =voltage       node    =voltage       node    =voltage

 + 0:b       =   1.0000   0:clk     =   0.       0:d       =   1.0000 
 + 0:out     = 999.8662m  0:vm      =   1.0000   0:w1      = 456.2005m
 + 0:w2      = 999.8709m  1:qb      = 456.2073m  1:w1      = 999.7197m
 + 1:w2      = 999.8661m  1:w3      = 999.9871m  1:w4      = 270.2140u
 + 2:ab      = 608.3332m  2:bb      = 141.1991u  2:f       = 606.5589m
 + 2:w1      = 112.7680m  2:w2      = 998.5492m  2:w3      = 146.6032u
 + 2:y1      = 702.5142m  2:y2      = 683.0576m  2:y3      =  26.0431m
 + 2:y4      = 508.9497m  3:qb      = 269.2651u  3:w1      = 999.7197m
 + 3:w2      = 999.8670m  3:w3      = 999.9800m  3:w4      = 270.6044u
 + 4:2       =  68.5556u  5:2       = 838.4322m  6:2       = 151.0115m
 + 6:3       = 940.9258m  7:2       = 136.9209u  8:2       = 405.7002m
 + 9:2       = 405.7377m 16:2       =  68.5561u 17:2       = 838.4324m
 +18:2       = 151.0111m 18:3       = 940.9245m 19:2       = 137.1193u
 +20:2       = 838.3528m 21:2       = 136.4498u


 ****  voltage sources

 subckt                                                  
 element   0:vsupply   0:vind      0:vinclk    0:vinb    
  volts       1.0000      1.0000      0.          1.0000 
  current   -28.8252u    -1.0536n     1.0134n    -1.4425n
  power      28.8252u     1.0536n     0.          1.4425n

     total voltage source power dissipation=   28.8277u       watts




 **** mosfets


 subckt    x2          x2          x2          x2          x2        
 element   2:mp1       2:mp2       2:mp3       2:mp4       2:mn1     
 model     0:pmos      0:pmos      0:pmos      0:pmos      0:nmos    
 region      Saturati      Linear      Cutoff      Cutoff    Saturati
  id         -7.2866u    -7.2866u  -349.6440p  -350.0310p     7.2855u
  ibs      -3.055e-25  -1.001e-25  -3.068e-25  -8.063e-26   6.226e-25
  ibd       307.4857f   105.7165f   326.9424f    85.9895f  -590.5158f
  vgs      -543.7995m  -702.3730m     0.        -74.7243m   430.1574m
  vds      -297.4858m   -95.9553m  -316.9424m   -76.4986m   580.5158m
  vbs         0.          0.          0.          0.          0.     
  vth      -350.6721m  -404.9745m  -345.4295m  -410.2171m   367.0862m
  vdsat    -187.5391m  -259.1033m   -45.9745m   -46.1788m    80.9910m
  vod      -193.1274m  -297.3985m   345.4295m   335.4927m    63.0712m
  beta      410.7031u   373.7958u   384.1685u   351.0016u     3.1409m
  gam eff   400.0000m   400.0000m   400.0000m   400.0000m   400.0000m
  gm         57.9484u    25.2751u     8.2467n     8.2390n    79.6496u
  gds        20.8279u    67.4477u     2.4622n     3.0886n    19.2190u
  gmb        10.9583u     5.6737u     1.9635n     1.9402n    15.9306u
  cdtot     108.2779a   118.0072a    90.7108a   106.5310a    43.9201a
  cgtot     140.6745a   146.8741a    86.1910a   100.8987a    54.0675a
  cstot     177.5435a   178.9447a   146.4606a   149.7498a    82.5301a
  cbtot     168.2667a   171.4950a   170.1513a   173.7110a    82.4496a
  cgs        92.5659a    96.7417a    44.2659a    47.5553a    36.5248a
  cgd        45.1057a    47.9745a    32.3400a    44.1794a    15.2856a



 subckt    x2          x2          x2          x1.x1       x1.x1     
 element   2:mn2       2:mn3       2:mn4       4:mp1       4:mp2     
 model     0:nmos      0:nmos      0:nmos      0:pmos      0:pmos    
 region        Linear      Cutoff      Cutoff      Linear      Cutoff
  id          7.2860u     1.4074n     1.3919n   -19.5800n  -164.0340f
  ibs       5.325e-26   1.006e-25   4.866e-25  -3.620e-26  -4.442e-28
  ibd       -32.4142f  -107.3853f  -518.9497f   388.8055a   388.8055a
  vgs         1.0000     99.3835m   141.1991u  -999.7298m  -133.8742u
  vds        26.0431m    97.6092m   508.9497m  -280.2984u  -280.2984u
  vbs         0.          0.          0.          0.          0.     
  vth       489.1646m   473.4079m   382.8429m  -430.7541m  -430.7541m
  vdsat     282.0481m    39.6056m    38.8629m  -425.7304m   -46.2004m
  vod       510.8354m  -374.0244m  -382.7017m  -568.9757m   430.6202m
  beta        2.0999m     2.8465m     3.2110m   150.7583u   156.2544u
  gam eff   400.0000m   400.0000m   400.0000m   400.0000m   400.0000m
  gm          3.8128u    32.1719n    31.8632n    23.0007n     3.9106p
  gds       270.9568u     8.5922n     7.5166n    69.8394u   584.3115p
  gmb         1.3423u     8.4305n     8.3942n     7.3075n     1.0089p
  cdtot      76.4724a    51.3434a    41.5717a    80.1969a    52.1866a
  cgtot      69.0445a    47.1651a    38.8184a    70.5191a    45.0743a
  cstot      79.1968a    73.3504a    71.4272a    77.7760a    71.3572a
  cbtot      87.0071a    86.6232a    83.8395a    87.2343a    87.5917a
  cgs        40.1464a    22.2532a    20.3299a    40.9740a    20.2598a
  cgd        28.3789a    20.3649a    13.6592a    28.9349a    20.2535a



 subckt    x1.x1       x1.x1       x1.x2       x1.x2       x1.x2     
 element   4:mn1       4:mn2       5:mp1       5:mp2       5:mn1     
 model     0:nmos      0:nmos      0:pmos      0:pmos      0:nmos    
 region        Linear      Cutoff      Cutoff      Linear      Cutoff
  id         19.7855n    19.2600n   -78.6819f    -9.3556n     8.1147n
  ibs       2.078e-26   9.524e-25  -4.442e-28  -3.620e-26   7.957e-25
  ibd       -95.2038a    -1.0097p   185.8463a   185.8463a  -848.4322f
  vgs       999.8661m   201.6585u  -280.2984u    -1.0000      0.     
  vds        68.5556u   999.6511m  -133.8742u  -133.8742u   838.4322m
  vbs         0.          0.          0.          0.          0.     
  vth       494.8834m   274.8051m  -430.7935m  -430.7935m   310.3007m
  vdsat     279.6625m    38.1131m   -46.2005m  -425.8678m    38.3209m
  vod       504.9827m  -274.6034m   430.5132m  -569.2065m  -310.3007m
  beta        2.0915m     3.6851m   156.2462u   150.7386u     3.5258m
  gam eff   400.0000m   400.0000m   400.0000m   400.0000m   400.0000m
  gm          9.2768n   427.0242n     1.8758p    10.9812n   182.5697n
  gds       288.5824u   102.8181n   587.2995p    69.8768u    43.2774n
  gmb         3.4502n   102.4519n   483.8952f     3.4900n    45.1937n
  cdtot      81.3737a    38.0552a    52.1945a    80.2185a    38.9761a
  cgtot      69.1758a    37.7704a    45.0835a    70.5208a    37.9728a
  cstot      76.4407a    71.4322a    71.3604a    77.7641a    71.4254a
  cbtot      87.3872a    81.3763a    87.5928a    87.2366a    82.0890a
  cgs        38.6973a    20.3370a    20.2630a    40.9690a    20.3289a
  cgd        29.9936a    12.6053a    20.2599a    28.9419a    12.8145a



 subckt    x1.x2       x1.x3       x1.x3       x1.x3       x1.x3     
 element   5:mn2       6:mp1       6:mp2       6:mp3       6:mn1     
 model     0:nmos      0:pmos      0:pmos      0:pmos      0:nmos    
 region        Cutoff      Cutoff      Linear      Linear      Cutoff
  id          8.2426n    -7.5423f  -899.4329p  -899.1476p   313.4264p
  ibs       1.608e-25     0.       -3.598e-26  -3.576e-26   1.510e-25
  ibd      -171.4152f    17.8771a    17.8771a    17.8771a  -160.9835f
  vgs       161.2875m  -133.8742u    -1.0000   -999.7298m   270.2140u
  vds       161.4339m   -12.8692u   -12.8692u   -12.8692u   151.0115m
  vbs         0.          0.          0.          0.          0.     
  vth       459.3556m  -430.8261m  -430.8261m  -430.8261m   461.6503m
  vdsat      39.5679m   -46.2006m  -425.8525m  -425.6967m    39.5515m
  vod      -298.0681m   430.6923m  -569.1739m  -568.9037m  -461.3801m
  beta        2.9005m   156.2395u   150.7352u   150.7509u     4.6055m
  gam eff   400.0000m   400.0000m   400.0000m   400.0000m   400.0000m
  gm        184.6929n   179.8112f     1.0556n     1.0560n     7.2352n
  gds        45.1756n   586.0292p    69.8895u    69.8673u     1.7749n
  gmb        45.4241n    46.3937f   335.5196p   335.5688p     2.0334n
  cdtot      50.7337a    52.1952a    80.2338a    80.2307a    73.0036a
  cgtot      47.8428a    45.0801a    70.5212a    70.5199a    67.1331a
  cstot      74.2217a    71.3572a    77.7548a    77.7555a   109.0273a
  cbtot      85.9039a    87.5945a    87.2385a    87.2386a   129.8971a
  cgs        23.1255a    20.2598a    40.9643a    40.9636a    32.3811a
  cgd        20.3225a    20.2593a    28.9470a    28.9463a    27.2525a



 subckt    x1.x3       x1.x3       x1.x4       x1.x4       x1.x4     
 element   6:mn2       6:mn3       7:mp1       7:mp2       7:mn1     
 model     0:nmos      0:nmos      0:pmos      0:pmos      0:nmos    
 region        Cutoff      Cutoff      Cutoff      Cutoff      Linear
  id        314.0485p   678.6000p   -18.8037n   -18.7984n    39.5155n
  ibs       7.501e-25   6.363e-26  -9.504e-25  -9.506e-25   2.093e-26
  ibd      -799.9143f   -68.0576f     1.0097p     1.0097p  -190.0727a
  vgs      -151.0115m    58.9403m   -12.8692u     0.          1.0000 
  vds       789.9143m    59.0614m  -999.7298m  -999.7298m   136.9209u
  vbs         0.          0.          0.          0.          0.     
  vth       320.9829m   481.8950m  -161.4527m  -161.4527m   494.8684m
  vdsat      38.4151m    39.7158m   -46.9890m   -46.9885m   279.7271m
  vod      -471.9944m  -422.9546m   161.4398m   161.4527m   505.1316m
  beta        5.5400m     4.4820m   236.0878u   236.0877u     2.0914m
  gam eff   400.0000m   400.0000m   400.0000m   400.0000m   400.0000m
  gm          7.2544n    15.6147n   406.2469n   406.1381n    18.5237n
  gds         1.7126n     5.7992n   139.6022n   139.5646n   288.5536u
  gmb         2.0497n     4.2602n    83.7453n    83.7237n     6.8893n
  cdtot      59.7721a    79.3811a    37.9798a    37.9798a    81.3640a
  cgtot      55.8194a    73.8956a    37.3971a    37.3968a    69.1758a
  cstot     103.8910a   110.9509a    71.4013a    71.4010a    76.4471a
  cbtot     124.6250a   130.8840a    81.1110a    81.1110a    87.3862a
  cgs        27.2449a    34.3048a    20.3195a    20.3192a    38.7007a
  cgd        20.1839a    32.3671a    12.5251a    12.5251a    29.9903a



 subckt    x1.x4       x1.x5       x1.x5       x1.x5       x1.x5     
 element   7:mn2       8:mp1       8:mp2       8:mn1       8:mn2     
 model     0:nmos      0:pmos      0:pmos      0:nmos      0:nmos    
 region        Linear      Cutoff    Saturati    Saturati      Linear
  id         38.4659n  -777.8951p    -6.0541u     6.0550u     6.0549u
  ibs       2.086e-26  -5.195e-25  -5.563e-25   4.276e-25   5.630e-26
  ibd      -185.0403a   553.7995f   553.7995f  -415.7002f   -59.0996f
  vgs       999.8502m  -133.8742u  -543.7927m   456.2073m   594.1659m
  vds       133.2931u  -543.7995m  -543.7995m   405.7002m    50.5003m
  vbs         0.          0.          0.          0.          0.     
  vth       494.8692m  -284.3029m  -284.3029m   405.5754m   483.7799m
  vdsat     279.6613m   -45.8507m  -227.2956m    77.2030m   101.8173m
  vod       504.9810m   284.1691m  -259.4898m    50.6319m   110.3860m
  beta        2.0916m   192.5392u   201.7898u     2.9986m     2.6356m
  gam eff   400.0000m   400.0000m   400.0000m   400.0000m   400.0000m
  gm         18.0417n    18.0516n    36.0168u    70.9021u    36.6246u
  gds       288.5358u     5.3580n    12.4413u    17.3049u    94.0472u
  gmb         6.7088n     4.0871n     7.0369u    14.2724u     7.8771u
  cdtot      81.3628a    41.1567a    46.7126a    49.3283a    56.8565a
  cgtot      69.1755a    38.2751a    61.8784a    57.4355a    64.5319a
  cstot      76.4474a    71.3590a    86.1775a    81.8950a    84.3042a
  cbtot      87.3863a    83.3630a    82.4183a    83.4850a    86.2613a
  cgs        38.7006a    20.2621a    43.5960a    35.3270a    40.0204a
  cgd        29.9900a    13.4523a    16.8017a    19.7373a    22.9798a



 subckt    x1.x6       x1.x6       x1.x6       x1.x6       x2.x1     
 element   9:mp1       9:mp2       9:mn1       9:mn2      10:mp1     
 model     0:pmos      0:pmos      0:nmos      0:nmos      0:pmos    
 region        Cutoff    Saturati    Saturati      Linear    Saturati
  id       -775.6776p    -6.0543u     6.0551u     6.0551u    -4.2976u
  ibs      -5.195e-25  -5.563e-25   4.276e-25   5.619e-26  -3.927e-25
  ibd       553.7927f   553.7927f  -415.7377f   -59.0672f   401.6668f
  vgs       -12.8692u  -543.7995m   456.2005m   594.2494m  -543.7995m
